Sample in Buffer,Sample in Window,TRIGGER,clk_vector,trigger_adc_buf_in[7:0],trig_vector,diff[8:0],prev_frame_adc[7:0]
Radix - UNSIGNED,UNSIGNED,UNSIGNED,HEX,UNSIGNED,HEX,SIGNED,UNSIGNED
0,0,0,1,148,0,0,148
1,1,0,0,148,0,0,148
2,2,0,0,148,0,0,148
3,3,0,0,148,0,0,148
4,4,0,1,148,0,0,148
5,5,0,1,148,0,0,148
6,6,0,0,148,0,0,148
7,7,0,0,147,0,0,148
8,8,0,0,147,0,0,148
9,9,0,1,147,0,0,148
10,10,0,1,147,0,0,148
11,11,0,0,147,0,0,148
12,12,0,0,148,0,1,148
13,13,0,0,148,0,1,148
14,14,0,1,148,0,1,148
15,15,0,1,148,0,1,148
16,16,0,0,148,0,1,148
17,17,0,0,148,0,0,148
18,18,0,0,148,0,0,148
19,19,0,1,148,0,0,148
20,20,0,1,148,0,0,148
21,21,0,0,148,0,0,148
22,22,0,0,148,0,0,147
23,23,0,0,148,0,0,147
24,24,0,1,148,0,0,147
25,25,0,1,148,0,0,147
26,26,0,0,148,0,0,147
27,27,0,0,148,0,-1,148
28,28,0,0,148,0,-1,148
29,29,0,1,148,0,-1,148
30,30,0,1,148,0,-1,148
31,31,0,0,148,0,-1,148
32,32,0,0,148,0,0,148
33,33,0,0,148,0,0,148
34,34,0,1,148,0,0,148
35,35,0,1,148,0,0,148
36,36,0,0,148,0,0,148
37,37,0,0,148,0,0,148
38,38,0,0,148,0,0,148
39,39,0,1,148,0,0,148
40,40,0,1,148,0,0,148
41,41,0,0,148,0,0,148
42,42,0,0,147,0,0,148
43,43,0,0,147,0,0,148
44,44,0,1,147,0,0,148
45,45,0,1,147,0,0,148
46,46,0,0,147,0,0,148
47,47,0,0,148,0,1,148
48,48,0,0,148,0,1,148
49,49,0,1,148,0,1,148
50,50,0,1,148,0,1,148
51,51,0,0,148,0,1,148
52,52,0,0,148,0,0,148
53,53,0,0,148,0,0,148
54,54,0,1,148,0,0,148
55,55,0,1,148,0,0,148
56,56,0,0,148,0,0,148
57,57,0,0,148,0,0,148
58,58,0,0,148,0,0,148
59,59,0,1,148,0,0,148
60,60,0,1,148,0,0,148
61,61,0,0,148,0,0,148
62,62,0,0,148,0,0,147
63,63,0,0,148,0,0,147
64,64,0,1,148,0,0,147
65,65,0,1,148,0,0,147
66,66,0,0,148,0,0,147
67,67,0,0,148,0,-1,148
68,68,0,0,148,0,-1,148
69,69,0,1,148,0,-1,148
70,70,0,1,148,0,-1,148
71,71,0,0,148,0,-1,148
72,72,0,0,148,0,0,148
73,73,0,0,148,0,0,148
74,74,0,1,148,0,0,148
75,75,0,1,148,0,0,148
76,76,0,0,148,0,0,148
77,77,0,0,148,0,0,148
78,78,0,0,148,0,0,148
79,79,0,1,148,0,0,148
80,80,0,1,148,0,0,148
81,81,0,0,148,0,0,148
82,82,0,0,147,0,0,148
83,83,0,0,147,0,0,148
84,84,0,1,147,0,0,148
85,85,0,1,147,0,0,148
86,86,0,0,147,0,0,148
87,87,0,0,148,0,1,148
88,88,0,0,148,0,1,148
89,89,0,1,148,0,1,148
90,90,0,1,148,0,1,148
91,91,0,0,148,0,1,148
92,92,0,0,148,0,0,148
93,93,0,0,148,0,0,148
94,94,0,1,148,0,0,148
95,95,0,1,148,0,0,148
96,96,0,0,148,0,0,148
97,97,0,0,148,0,0,148
98,98,0,0,148,0,0,148
99,99,0,1,148,0,0,148
100,100,0,1,148,0,0,148
101,101,0,0,148,0,0,148
102,102,0,0,148,0,0,147
103,103,0,0,148,0,0,147
104,104,0,1,148,0,0,147
105,105,0,1,148,0,0,147
106,106,0,0,148,0,0,147
107,107,0,0,148,0,-1,148
108,108,0,0,148,0,-1,148
109,109,0,1,148,0,-1,148
110,110,0,1,148,0,-1,148
111,111,0,0,148,0,-1,148
112,112,0,0,148,0,0,148
113,113,0,0,148,0,0,148
114,114,0,1,148,0,0,148
115,115,0,1,148,0,0,148
116,116,0,0,148,0,0,148
117,117,0,0,148,0,0,148
118,118,0,0,148,0,0,148
119,119,0,1,148,0,0,148
120,120,0,1,148,0,0,148
121,121,0,0,148,0,0,148
122,122,0,0,147,0,0,147
123,123,0,0,147,0,0,147
124,124,0,1,147,0,0,147
125,125,0,1,147,0,0,147
126,126,0,0,147,0,0,147
127,127,0,0,148,0,0,148
128,128,0,0,148,0,0,148
129,129,0,1,148,0,0,148
130,130,0,1,148,0,0,148
131,131,0,0,148,0,0,148
132,132,0,0,148,0,0,148
133,133,0,0,148,0,0,148
134,134,0,1,148,0,0,148
135,135,0,1,148,0,0,148
136,136,0,0,148,0,0,148
137,137,0,0,148,0,0,148
138,138,0,0,148,0,0,148
139,139,0,1,148,0,0,148
140,140,0,1,148,0,0,148
141,141,0,0,148,0,0,148
142,142,0,0,148,0,0,148
143,143,0,0,148,0,0,148
144,144,0,1,148,0,0,148
145,145,0,1,148,0,0,148
146,146,0,0,148,0,0,148
147,147,0,0,148,0,0,148
148,148,0,0,148,0,0,148
149,149,0,1,148,0,0,148
150,150,0,1,148,0,0,148
151,151,0,0,148,0,0,148
152,152,0,0,148,0,0,148
153,153,0,0,148,0,0,148
154,154,0,1,148,0,0,148
155,155,0,1,148,0,0,148
156,156,0,0,148,0,0,148
157,157,0,0,148,0,0,148
158,158,0,0,148,0,0,148
159,159,0,1,148,0,0,148
160,160,0,1,148,0,0,148
161,161,0,0,148,0,0,148
162,162,0,0,148,0,0,147
163,163,0,0,148,0,0,147
164,164,0,1,148,0,0,147
165,165,0,1,148,0,0,147
166,166,0,0,148,0,4,147
167,167,0,0,148,0,-1,148
168,168,0,0,148,0,-1,148
169,169,0,1,148,0,-1,148
170,170,0,1,148,0,-1,148
171,171,0,0,148,0,-9,148
172,172,0,0,148,0,0,148
173,173,0,0,148,0,0,148
174,174,0,1,148,0,0,148
175,175,0,1,148,0,0,148
176,176,0,0,148,0,0,148
177,177,0,0,148,0,0,148
178,178,0,0,148,0,0,148
179,179,0,1,148,0,0,148
180,180,0,1,148,0,0,148
181,181,0,0,148,0,0,148
182,182,0,0,148,0,0,148
183,183,0,0,148,0,0,148
184,184,0,1,148,0,0,148
185,185,0,1,148,0,0,148
186,186,0,0,148,0,0,148
187,187,0,0,148,0,0,148
188,188,0,0,148,0,0,148
189,189,0,1,148,0,0,148
190,190,0,1,148,0,0,148
191,191,0,0,148,0,0,148
192,192,0,0,148,0,0,148
193,193,0,0,148,0,0,148
194,194,0,1,148,0,0,148
195,195,0,1,148,0,0,148
196,196,0,0,148,0,0,148
197,197,0,0,148,0,0,148
198,198,0,0,148,0,0,148
199,199,0,1,148,0,0,148
200,200,0,1,148,0,0,148
201,201,0,0,148,0,0,148
202,202,0,0,148,0,0,148
203,203,0,0,148,0,0,148
204,204,0,1,148,0,0,148
205,205,0,1,148,0,0,148
206,206,0,0,148,0,0,148
207,207,0,0,148,0,0,148
208,208,0,0,148,0,0,148
209,209,0,1,148,0,0,148
210,210,0,1,148,0,0,148
211,211,0,0,148,0,0,148
212,212,0,0,148,0,0,148
213,213,0,0,148,0,0,148
214,214,0,1,148,0,0,148
215,215,0,1,148,0,0,148
216,216,0,0,148,0,0,148
217,217,0,0,148,0,0,148
218,218,0,0,148,0,0,148
219,219,0,1,148,0,0,148
220,220,0,1,148,0,0,148
221,221,0,0,148,0,0,148
222,222,0,0,148,0,0,148
223,223,0,0,148,0,0,148
224,224,0,1,148,0,0,148
225,225,0,1,148,0,0,148
226,226,0,0,148,0,0,148
227,227,0,0,148,0,0,148
228,228,0,0,148,0,0,148
229,229,0,1,148,0,0,148
230,230,0,1,148,0,0,148
231,231,0,0,148,0,0,148
232,232,0,0,148,0,0,148
233,233,0,0,148,0,0,148
234,234,0,1,148,0,0,148
235,235,0,1,148,0,0,148
236,236,0,0,148,0,0,148
237,237,0,0,148,0,0,148
238,238,0,0,148,0,0,148
239,239,0,1,148,0,0,148
240,240,0,1,148,0,0,148
241,241,0,0,148,0,0,148
242,242,0,0,148,0,0,148
243,243,0,0,148,0,0,148
244,244,0,1,148,0,0,148
245,245,0,1,148,0,0,148
246,246,0,0,148,0,0,148
247,247,0,0,147,0,0,148
248,248,0,0,147,0,0,148
249,249,0,1,147,0,0,148
250,250,0,1,147,0,0,148
251,251,0,0,147,0,0,148
252,252,0,0,148,0,1,148
253,253,0,0,148,0,1,148
254,254,0,1,148,0,1,148
255,255,0,1,148,0,1,148
256,256,0,0,148,0,1,148
257,257,0,0,148,0,0,148
258,258,0,0,148,0,0,148
259,259,0,1,148,0,0,148
260,260,0,1,148,0,0,148
261,261,0,0,148,0,0,148
262,262,0,0,148,0,0,148
263,263,0,0,148,0,0,148
264,264,0,1,148,0,0,148
265,265,0,1,148,0,0,148
266,266,0,0,148,0,0,148
267,267,0,0,148,0,0,148
268,268,0,0,148,0,0,148
269,269,0,1,148,0,0,148
270,270,0,1,148,0,0,148
271,271,0,0,148,0,0,148
272,272,0,0,148,0,0,148
273,273,0,0,148,0,0,148
274,274,0,1,148,0,0,148
275,275,0,1,148,0,0,148
276,276,0,0,148,0,0,148
277,277,0,0,148,0,0,148
278,278,0,0,148,0,0,148
279,279,0,1,148,0,0,148
280,280,0,1,148,0,0,148
281,281,0,0,148,0,0,148
282,282,0,0,147,0,0,148
283,283,0,0,147,0,0,148
284,284,0,1,147,0,0,148
285,285,0,1,147,0,0,148
286,286,0,0,147,0,0,148
287,287,0,0,148,0,1,148
288,288,0,0,148,0,1,148
289,289,0,1,148,0,1,148
290,290,0,1,148,0,1,148
291,291,0,0,148,0,1,148
292,292,0,0,148,0,0,148
293,293,0,0,148,0,0,148
294,294,0,1,148,0,0,148
295,295,0,1,148,0,0,148
296,296,0,0,148,0,0,148
297,297,0,0,148,0,0,148
298,298,0,0,148,0,0,148
299,299,0,1,148,0,0,148
300,300,0,1,148,0,0,148
301,301,0,0,148,0,0,148
302,302,0,0,148,0,0,148
303,303,0,0,148,0,0,148
304,304,0,1,148,0,0,148
305,305,0,1,148,0,0,148
306,306,0,0,148,0,0,148
307,307,0,0,148,0,0,148
308,308,0,0,148,0,0,148
309,309,0,1,148,0,0,148
310,310,0,1,148,0,0,148
311,311,0,0,148,0,0,148
312,312,0,0,148,0,0,148
313,313,0,0,148,0,0,148
314,314,0,1,148,0,0,148
315,315,0,1,148,0,0,148
316,316,0,0,148,0,0,148
317,317,0,0,148,0,0,148
318,318,0,0,148,0,0,148
319,319,0,1,148,0,0,148
320,320,0,1,148,0,0,148
321,321,0,0,148,0,0,148
322,322,0,0,148,0,0,148
323,323,0,0,148,0,0,148
324,324,0,1,148,0,0,148
325,325,0,1,148,0,0,148
326,326,0,0,148,0,0,148
327,327,0,0,148,0,0,148
328,328,0,0,148,0,0,148
329,329,0,1,148,0,0,148
330,330,0,1,148,0,0,148
331,331,0,0,148,0,0,148
332,332,0,0,148,0,0,148
333,333,0,0,148,0,0,148
334,334,0,1,148,0,0,148
335,335,0,1,148,0,0,148
336,336,0,0,148,0,0,148
337,337,0,0,148,0,0,148
338,338,0,0,148,0,0,148
339,339,0,1,148,0,0,148
340,340,0,1,148,0,0,148
341,341,0,0,148,0,0,148
342,342,0,0,148,0,0,147
343,343,0,0,148,0,0,147
344,344,0,1,148,0,0,147
345,345,0,1,148,0,0,147
346,346,0,0,148,0,4,147
347,347,0,0,148,0,-1,148
348,348,0,0,148,0,-1,148
349,349,0,1,148,0,-1,148
350,350,0,1,148,0,-1,148
351,351,0,0,148,0,-13,148
352,352,0,0,148,0,0,148
353,353,0,0,148,0,0,148
354,354,0,1,148,0,0,148
355,355,0,1,148,0,0,148
356,356,0,0,148,0,0,148
357,357,0,0,148,0,0,148
358,358,0,0,148,0,0,148
359,359,0,1,148,0,0,148
360,360,0,1,148,0,0,148
361,361,0,0,148,0,0,148
362,362,0,0,148,0,0,148
363,363,0,0,148,0,0,148
364,364,0,1,148,0,0,148
365,365,0,1,148,0,0,148
366,366,0,0,148,0,0,148
367,367,0,0,148,0,0,148
368,368,0,0,148,0,0,148
369,369,0,1,148,0,0,148
370,370,0,1,148,0,0,148
371,371,0,0,148,0,0,148
372,372,0,0,148,0,0,148
373,373,0,0,148,0,0,148
374,374,0,1,148,0,0,148
375,375,0,1,148,0,0,148
376,376,0,0,148,0,0,148
377,377,0,0,148,0,0,148
378,378,0,0,148,0,0,148
379,379,0,1,148,0,0,148
380,380,0,1,148,0,0,148
381,381,0,0,148,0,0,148
382,382,0,0,148,0,0,148
383,383,0,0,148,0,0,148
384,384,0,1,148,0,0,148
385,385,0,1,148,0,0,148
386,386,0,0,148,0,0,148
387,387,0,0,148,0,0,148
388,388,0,0,148,0,0,148
389,389,0,1,148,0,0,148
390,390,0,1,148,0,0,148
391,391,0,0,148,0,0,148
392,392,0,0,148,0,0,148
393,393,0,0,148,0,0,148
394,394,0,1,148,0,0,148
395,395,0,1,148,0,0,148
396,396,0,0,148,0,0,148
397,397,0,0,148,0,0,148
398,398,0,0,148,0,0,148
399,399,0,1,148,0,0,148
400,400,0,1,148,0,0,148
401,401,0,0,148,0,0,148
402,402,0,0,148,0,0,148
403,403,0,0,148,0,0,148
404,404,0,1,148,0,0,148
405,405,0,1,148,0,0,148
406,406,0,0,148,0,0,148
407,407,0,0,148,0,0,148
408,408,0,0,148,0,0,148
409,409,0,1,148,0,0,148
410,410,0,1,148,0,0,148
411,411,0,0,148,0,0,148
412,412,0,0,148,0,0,148
413,413,0,0,148,0,0,148
414,414,0,1,148,0,0,148
415,415,0,1,148,0,0,148
416,416,0,0,148,0,0,148
417,417,0,0,148,0,0,148
418,418,0,0,148,0,0,148
419,419,0,1,148,0,0,148
420,420,0,1,148,0,0,148
421,421,0,0,148,0,0,148
422,422,0,0,148,0,0,148
423,423,0,0,148,0,0,148
424,424,0,1,148,0,0,148
425,425,0,1,148,0,0,148
426,426,0,0,148,0,0,148
427,427,0,0,148,0,0,148
428,428,0,0,148,0,0,148
429,429,0,1,148,0,0,148
430,430,0,1,148,0,0,148
431,431,0,0,148,0,0,148
432,432,0,0,148,0,0,148
433,433,0,0,148,0,0,148
434,434,0,1,148,0,0,148
435,435,0,1,148,0,0,148
436,436,0,0,148,0,0,148
437,437,0,0,148,0,0,148
438,438,0,0,148,0,0,148
439,439,0,1,148,0,0,148
440,440,0,1,148,0,0,148
441,441,0,0,148,0,0,148
442,442,0,0,147,0,0,148
443,443,0,0,147,0,0,148
444,444,0,1,147,0,0,148
445,445,0,1,147,0,0,148
446,446,0,0,147,0,0,148
447,447,0,0,148,0,1,148
448,448,0,0,148,0,1,148
449,449,0,1,148,0,1,148
450,450,0,1,148,0,1,148
451,451,0,0,148,0,1,148
452,452,0,0,148,0,0,148
453,453,0,0,148,0,0,148
454,454,0,1,148,0,0,148
455,455,0,1,148,0,0,148
456,456,0,0,148,0,0,148
457,457,0,0,148,0,0,148
458,458,0,0,148,0,0,148
459,459,0,1,148,0,0,148
460,460,0,1,148,0,0,148
461,461,0,0,148,0,0,148
462,462,0,0,148,0,0,147
463,463,0,0,148,0,0,147
464,464,0,1,148,0,0,147
465,465,0,1,148,0,0,147
466,466,0,0,148,0,4,147
467,467,0,0,148,0,-1,148
468,468,0,0,148,0,-1,148
469,469,0,1,148,0,-1,148
470,470,0,1,148,0,-1,148
471,471,0,0,148,0,-13,148
472,472,0,0,148,0,0,148
473,473,0,0,148,0,0,148
474,474,0,1,148,0,0,148
475,475,0,1,148,0,0,148
476,476,0,0,148,0,0,148
477,477,0,0,148,0,0,148
478,478,0,0,148,0,0,148
479,479,0,1,148,0,0,148
480,480,0,1,148,0,0,148
481,481,0,0,148,0,0,148
482,482,0,0,147,0,0,148
483,483,0,0,147,0,0,148
484,484,0,1,147,0,0,148
485,485,0,1,147,0,0,148
486,486,0,0,147,0,0,148
487,487,0,0,148,0,1,148
488,488,0,0,148,0,1,148
489,489,0,1,148,0,1,148
490,490,0,1,148,0,1,148
491,491,0,0,148,0,1,148
492,492,0,0,148,0,0,148
493,493,0,0,148,0,0,148
494,494,0,1,148,0,0,148
495,495,0,1,148,0,0,148
496,496,0,0,148,0,0,148
497,497,0,0,148,0,0,148
498,498,0,0,148,0,0,148
499,499,0,1,148,0,0,148
500,500,0,1,148,0,0,148
501,501,0,0,148,0,0,148
502,502,0,0,148,0,0,148
503,503,0,0,148,0,0,148
504,504,0,1,148,0,0,148
505,505,0,1,148,0,0,148
506,506,0,0,148,0,0,148
507,507,0,0,148,0,0,148
508,508,0,0,148,0,0,148
509,509,0,1,148,0,0,148
510,510,0,1,148,0,0,148
511,511,0,0,148,0,0,148
512,512,0,0,148,0,0,148
513,513,0,0,148,0,0,148
514,514,0,1,148,0,0,148
515,515,0,1,148,0,0,148
516,516,0,0,148,0,0,148
517,517,0,0,148,0,0,148
518,518,0,0,148,0,0,148
519,519,0,1,148,0,0,148
520,520,0,1,148,0,0,148
521,521,0,0,148,0,0,148
522,522,0,0,148,0,0,147
523,523,0,0,148,0,0,147
524,524,0,1,148,0,0,147
525,525,0,1,148,0,0,147
526,526,0,0,148,0,4,147
527,527,0,0,148,0,-1,148
528,528,0,0,148,0,-1,148
529,529,0,1,148,0,-1,148
530,530,0,1,148,0,-1,148
531,531,0,0,148,0,-13,148
532,532,0,0,148,0,0,148
533,533,0,0,148,0,0,148
534,534,0,1,148,0,0,148
535,535,0,1,148,0,0,148
536,536,0,0,148,0,0,148
537,537,0,0,148,0,0,148
538,538,0,0,148,0,0,148
539,539,0,1,148,0,0,148
540,540,0,1,148,0,0,148
541,541,0,0,148,0,0,148
542,542,0,0,147,0,0,148
543,543,0,0,147,0,0,148
544,544,0,1,147,0,0,148
545,545,0,1,147,0,0,148
546,546,0,0,147,0,0,148
547,547,0,0,148,0,1,148
548,548,0,0,148,0,1,148
549,549,0,1,148,0,1,148
550,550,0,1,148,0,1,148
551,551,0,0,148,0,1,148
552,552,0,0,148,0,0,148
553,553,0,0,148,0,0,148
554,554,0,1,148,0,0,148
555,555,0,1,148,0,0,148
556,556,0,0,148,0,0,148
557,557,0,0,148,0,0,148
558,558,0,0,148,0,0,148
559,559,0,1,148,0,0,148
560,560,0,1,148,0,0,148
561,561,0,0,148,0,0,148
562,562,0,0,148,0,0,148
563,563,0,0,148,0,0,148
564,564,0,1,148,0,0,148
565,565,0,1,148,0,0,148
566,566,0,0,148,0,0,148
567,567,0,0,148,0,0,148
568,568,0,0,148,0,0,148
569,569,0,1,148,0,0,148
570,570,0,1,148,0,0,148
571,571,0,0,148,0,0,148
572,572,0,0,148,0,0,148
573,573,0,0,148,0,0,148
574,574,0,1,148,0,0,148
575,575,0,1,148,0,0,148
576,576,0,0,148,0,0,148
577,577,0,0,148,0,0,148
578,578,0,0,148,0,0,148
579,579,0,1,148,0,0,148
580,580,0,1,148,0,0,148
581,581,0,0,148,0,0,148
582,582,0,0,148,0,0,148
583,583,0,0,148,0,0,148
584,584,0,1,148,0,0,148
585,585,0,1,148,0,0,148
586,586,0,0,148,0,0,148
587,587,0,0,148,0,0,148
588,588,0,0,148,0,0,148
589,589,0,1,148,0,0,148
590,590,0,1,148,0,0,148
591,591,0,0,148,0,0,148
592,592,0,0,148,0,0,148
593,593,0,0,148,0,0,148
594,594,0,1,148,0,0,148
595,595,0,1,148,0,0,148
596,596,0,0,148,0,0,148
597,597,0,0,148,0,0,148
598,598,0,0,148,0,0,148
599,599,0,1,148,0,0,148
600,600,0,1,148,0,0,148
601,601,0,0,148,0,0,148
602,602,0,0,148,0,0,148
603,603,0,0,148,0,0,148
604,604,0,1,148,0,0,148
605,605,0,1,148,0,0,148
606,606,0,0,148,0,0,148
607,607,0,0,148,0,0,148
608,608,0,0,148,0,0,148
609,609,0,1,148,0,0,148
610,610,0,1,148,0,0,148
611,611,0,0,148,0,0,148
612,612,0,0,148,0,0,148
613,613,0,0,148,0,0,148
614,614,0,1,148,0,0,148
615,615,0,1,148,0,0,148
616,616,0,0,148,0,0,148
617,617,0,0,148,0,0,148
618,618,0,0,148,0,0,148
619,619,0,1,148,0,0,148
620,620,0,1,148,0,0,148
621,621,0,0,148,0,0,148
622,622,0,0,148,0,0,148
623,623,0,0,148,0,0,148
624,624,0,1,148,0,0,148
625,625,0,1,148,0,0,148
626,626,0,0,148,0,0,148
627,627,0,0,148,0,0,148
628,628,0,0,148,0,0,148
629,629,0,1,148,0,0,148
630,630,0,1,148,0,0,148
631,631,0,0,148,0,0,148
632,632,0,0,148,0,0,148
633,633,0,0,148,0,0,148
634,634,0,1,148,0,0,148
635,635,0,1,148,0,0,148
636,636,0,0,148,0,0,148
637,637,0,0,148,0,0,148
638,638,0,0,148,0,0,148
639,639,0,1,148,0,0,148
640,640,0,1,148,0,0,148
641,641,0,0,148,0,0,148
642,642,0,0,148,0,0,147
643,643,0,0,148,0,0,147
644,644,0,1,148,0,0,147
645,645,0,1,148,0,0,147
646,646,0,0,148,0,12,147
647,647,0,0,148,0,-1,148
648,648,0,0,148,0,-1,148
649,649,0,1,148,0,-1,148
650,650,0,1,148,0,-1,148
651,651,0,0,148,0,-13,148
652,652,0,0,148,0,0,148
653,653,0,0,148,0,0,148
654,654,0,1,148,0,0,148
655,655,0,1,148,0,0,148
656,656,0,0,148,0,0,148
657,657,0,0,148,0,0,148
658,658,0,0,148,0,0,148
659,659,0,1,148,0,0,148
660,660,0,1,148,0,0,148
661,661,0,0,148,0,0,148
662,662,0,0,148,0,0,148
663,663,0,0,148,0,0,148
664,664,0,1,148,0,0,148
665,665,0,1,148,0,0,148
666,666,0,0,148,0,0,148
667,667,0,0,148,0,0,148
668,668,0,0,148,0,0,148
669,669,0,1,148,0,0,148
670,670,0,1,148,0,0,148
671,671,0,0,148,0,0,148
672,672,0,0,148,0,0,148
673,673,0,0,148,0,0,148
674,674,0,1,148,0,0,148
675,675,0,1,148,0,0,148
676,676,0,0,148,0,0,148
677,677,0,0,148,0,0,148
678,678,0,0,148,0,0,148
679,679,0,1,148,0,0,148
680,680,0,1,148,0,0,148
681,681,0,0,148,0,0,148
682,682,0,0,148,0,0,148
683,683,0,0,148,0,0,148
684,684,0,1,148,0,0,148
685,685,0,1,148,0,0,148
686,686,0,0,148,0,0,148
687,687,0,0,148,0,0,148
688,688,0,0,148,0,0,148
689,689,0,1,148,0,0,148
690,690,0,1,148,0,0,148
691,691,0,0,148,0,0,148
692,692,0,0,148,0,0,148
693,693,0,0,148,0,0,148
694,694,0,1,148,0,0,148
695,695,0,1,148,0,0,148
696,696,0,0,148,0,0,148
697,697,0,0,148,0,0,148
698,698,0,0,148,0,0,148
699,699,0,1,148,0,0,148
700,700,0,1,148,0,0,148
701,701,0,0,148,0,0,148
702,702,0,0,147,0,0,148
703,703,0,0,147,0,0,148
704,704,0,1,147,0,0,148
705,705,0,1,147,0,0,148
706,706,0,0,147,0,0,148
707,707,0,0,148,0,1,148
708,708,0,0,148,0,1,148
709,709,0,1,148,0,1,148
710,710,0,1,148,0,1,148
711,711,0,0,148,0,1,148
712,712,0,0,148,0,0,148
713,713,0,0,148,0,0,148
714,714,0,1,148,0,0,148
715,715,0,1,148,0,0,148
716,716,0,0,148,0,0,148
717,717,0,0,148,0,0,148
718,718,0,0,148,0,0,148
719,719,0,1,148,0,0,148
720,720,0,1,148,0,0,148
721,721,0,0,148,0,0,148
722,722,0,0,148,0,0,148
723,723,0,0,148,0,0,148
724,724,0,1,148,0,0,148
725,725,0,1,148,0,0,148
726,726,0,0,148,0,0,148
727,727,0,0,148,0,0,148
728,728,0,0,148,0,0,148
729,729,0,1,148,0,0,148
730,730,0,1,148,0,0,148
731,731,0,0,148,0,0,148
732,732,0,0,148,0,0,148
733,733,0,0,148,0,0,148
734,734,0,1,148,0,0,148
735,735,0,1,148,0,0,148
736,736,0,0,148,0,0,148
737,737,0,0,148,0,0,148
738,738,0,0,148,0,0,148
739,739,0,1,148,0,0,148
740,740,0,1,148,0,0,148
741,741,0,0,148,0,0,148
742,742,0,0,148,0,0,148
743,743,0,0,148,0,0,148
744,744,0,1,148,0,0,148
745,745,0,1,148,0,0,148
746,746,0,0,148,0,0,148
747,747,0,0,148,0,0,148
748,748,0,0,148,0,0,148
749,749,0,1,148,0,0,148
750,750,0,1,148,0,0,148
751,751,0,0,148,0,0,148
752,752,0,0,148,0,0,148
753,753,0,0,148,0,0,148
754,754,0,1,148,0,0,148
755,755,0,1,148,0,0,148
756,756,0,0,148,0,0,148
757,757,0,0,148,0,0,148
758,758,0,0,148,0,0,148
759,759,0,1,148,0,0,148
760,760,0,1,148,0,0,148
761,761,0,0,148,0,0,148
762,762,0,0,148,0,0,148
763,763,0,0,148,0,0,148
764,764,0,1,148,0,0,148
765,765,0,1,148,0,0,148
766,766,0,0,148,0,0,148
767,767,0,0,147,0,0,148
768,768,0,0,147,0,0,148
769,769,0,1,147,0,0,148
770,770,0,1,147,0,0,148
771,771,0,0,147,0,0,148
772,772,0,0,148,0,1,148
773,773,0,0,148,0,1,148
774,774,0,1,148,0,1,148
775,775,0,1,148,0,1,148
776,776,0,0,148,0,1,148
777,777,0,0,148,0,0,148
778,778,0,0,148,0,0,148
779,779,0,1,148,0,0,148
780,780,0,1,148,0,0,148
781,781,0,0,148,0,0,148
782,782,0,0,148,0,0,148
783,783,0,0,148,0,0,148
784,784,0,1,148,0,0,148
785,785,0,1,148,0,0,148
786,786,0,0,148,0,0,148
787,787,0,0,148,0,0,148
788,788,0,0,148,0,0,148
789,789,0,1,148,0,0,148
790,790,0,1,148,0,0,148
791,791,0,0,148,0,0,148
792,792,0,0,148,0,0,148
793,793,0,0,148,0,0,148
794,794,0,1,148,0,0,148
795,795,0,1,148,0,0,148
796,796,0,0,148,0,0,148
797,797,0,0,148,0,0,148
798,798,0,0,148,0,0,148
799,799,0,1,148,0,0,148
800,800,0,1,148,0,0,148
801,801,0,0,148,0,0,148
802,802,0,0,147,0,0,148
803,803,0,0,147,0,0,148
804,804,0,1,147,0,0,148
805,805,0,1,147,0,0,148
806,806,0,0,147,0,0,148
807,807,0,0,148,0,1,148
808,808,0,0,148,0,1,148
809,809,0,1,148,0,1,148
810,810,0,1,148,0,1,148
811,811,0,0,148,0,1,148
812,812,0,0,148,0,0,148
813,813,0,0,148,0,0,148
814,814,0,1,148,0,0,148
815,815,0,1,148,0,0,148
816,816,0,0,148,0,0,148
817,817,0,0,148,0,0,148
818,818,0,0,148,0,0,148
819,819,0,1,148,0,0,148
820,820,0,1,148,0,0,148
821,821,0,0,148,0,0,148
822,822,0,0,148,0,0,148
823,823,0,0,148,0,0,148
824,824,0,1,148,0,0,148
825,825,0,1,148,0,0,148
826,826,0,0,148,0,0,148
827,827,0,0,148,0,0,148
828,828,0,0,148,0,0,148
829,829,0,1,148,0,0,148
830,830,0,1,148,0,0,148
831,831,0,0,148,0,0,148
